;$FILEVERSION=1.1
;$STARTTIME=45134.4594940856
;
;   Start time: 7/27/2023 11:01:40.289.0
;   Generated by PCAN-View v4.3.4.615
;
;   Message Number
;   |         Time Offset (ms)
;   |         |        Type
;   |         |        |        ID (hex)
;   |         |        |        |     Data Length
;   |         |        |        |     |   Data Bytes (hex) ...
;   |         |        |        |     |   |
;---+--   ----+----  --+--  ----+---  +  -+ -- -- -- -- -- -- --
     1)        17.5  Rx         0140  1  00 
     2)        37.4  Rx         0140  1  00 
     3)        57.4  Rx         0140  1  00 
     4)        77.4  Rx         0140  1  00 
     5)        97.5  Rx         0140  1  00 
     6)       117.4  Rx         0140  1  00 
     7)       137.4  Rx         0140  1  00 
     8)       157.4  Rx         0140  1  00 
     9)       177.4  Rx         0140  1  00 
    10)       197.4  Rx         0140  1  00 
    11)       217.4  Rx         0140  1  00 
    12)       237.4  Rx         0140  1  00 
    13)       257.4  Rx         0140  1  00 
    14)       277.4  Rx         0140  1  00 
    15)       297.4  Rx         0140  1  00 
    16)       317.4  Rx         0140  1  00 
    17)       337.4  Rx         0140  1  00 
    18)       357.4  Rx         0140  1  00 
    19)       377.4  Rx         0140  1  00 
    20)       397.4  Rx         0140  1  00 
    21)       417.4  Rx         0140  1  00 
    22)       437.4  Rx         0140  1  00 
    23)       457.4  Rx         0140  1  00 
    24)       477.4  Rx         0140  1  00 
    25)       497.4  Rx         0140  1  00 
    26)       517.4  Rx         0140  1  00 
    27)       537.4  Rx         0140  1  00 
    28)       557.4  Rx         0140  1  00 
    29)       577.4  Rx         0140  1  00 
    30)       597.4  Rx         0140  1  00 
    31)       617.4  Rx         0140  1  00 
    32)       637.4  Rx         0140  1  00 
    33)       657.4  Rx         0140  1  00 
    34)       677.4  Rx         0140  1  00 
    35)       697.4  Rx         0140  1  00 
    36)       717.4  Rx         0140  1  00 
    37)       737.4  Rx         0140  1  00 
    38)       757.4  Rx         0140  1  00 
    39)       777.4  Rx         0140  1  00 
    40)       797.4  Rx         0140  1  00 
    41)       817.4  Rx         0140  1  00 
    42)       837.4  Rx         0140  1  00 
    43)       857.4  Rx         0140  1  00 
    44)       877.4  Rx         0140  1  00 
    45)       897.4  Rx         0140  1  00 
    46)       917.4  Rx         0140  1  00 
    47)       937.4  Rx         0140  1  00 
    48)       957.4  Rx         0140  1  00 
    49)       977.4  Rx         0140  1  00 
    50)       997.4  Rx         0140  1  00 
    51)      1017.4  Rx         0140  1  00 
    52)      1037.4  Rx         0140  1  00 
    53)      1057.4  Rx         0140  1  00 
    54)      1077.4  Rx         0140  1  00 
    55)      1097.4  Rx         0140  1  00 
    56)      1117.4  Rx         0140  1  00 
    57)      1137.4  Rx         0140  1  00 
    58)      1157.4  Rx         0140  1  00 
    59)      1177.4  Rx         0140  1  00 
    60)      1197.4  Rx         0140  1  00 
    61)      1217.4  Rx         0140  1  00 
    62)      1237.4  Rx         0140  1  00 
    63)      1257.4  Rx         0140  1  00 
    64)      1277.4  Rx         0140  1  00 
    65)      1297.4  Rx         0140  1  00 
    66)      1317.4  Rx         0140  1  00 
    67)      1337.4  Rx         0140  1  00 
    68)      1357.4  Rx         0140  1  00 
    69)      1377.4  Rx         0140  1  00 
    70)      1397.4  Rx         0140  1  00 
    71)      1417.4  Rx         0140  1  00 
    72)      1437.4  Rx         0140  1  00 
    73)      1457.4  Rx         0140  1  00 
    74)      1477.4  Rx         0140  1  00 
    75)      1497.4  Rx         0140  1  00 
    76)      1517.4  Rx         0140  1  00 
    77)      1537.4  Rx         0140  1  00 
    78)      1557.4  Rx         0140  1  00 
    79)      1577.4  Rx         0140  1  00 
    80)      1597.4  Rx         0140  1  00 
    81)      1617.4  Rx         0140  1  00 
    82)      1637.4  Rx         0140  1  00 
    83)      1657.4  Rx         0140  1  00 
    84)      1677.4  Rx         0140  1  00 
    85)      1697.4  Rx         0140  1  00 
    86)      1717.4  Rx         0140  1  00 
    87)      1737.4  Rx         0140  1  00 
    88)      1757.4  Rx         0140  1  00 
    89)      1777.4  Rx         0140  1  00 
    90)      1797.4  Rx         0140  1  00 
    91)      1817.4  Rx         0140  1  00 
    92)      1837.4  Rx         0140  1  00 
    93)      1857.4  Rx         0140  1  00 
    94)      1877.4  Rx         0140  1  00 
    95)      1897.4  Rx         0140  1  00 
    96)      1917.4  Rx         0140  1  00 
    97)      1937.4  Rx         0140  1  00 
    98)      1957.4  Rx         0140  1  00 
    99)      1977.4  Rx         0140  1  00 
   100)      1997.4  Rx         0140  1  00 
   101)      2017.4  Rx         0140  1  00 
   102)      2037.4  Rx         0140  1  00 
   103)      2057.4  Rx         0140  1  00 
   104)      2077.4  Rx         0140  1  00 
   105)      2097.4  Rx         0140  1  00 
   106)      2117.4  Rx         0140  1  00 
   107)      2137.4  Rx         0140  1  00 
   108)      2157.4  Rx         0140  1  00 
   109)      2177.4  Rx         0140  1  00 
   110)      2197.4  Rx         0140  1  00 
   111)      2217.4  Rx         0140  1  00 
   112)      2237.4  Rx         0140  1  00 
   113)      2257.4  Rx         0140  1  00 
   114)      2277.4  Rx         0140  1  00 
   115)      2297.4  Rx         0140  1  00 
   116)      2317.4  Rx         0140  1  00 
   117)      2337.4  Rx         0140  1  00 
   118)      2357.4  Rx         0140  1  00 
   119)      2377.4  Rx         0140  1  00 
   120)      2397.4  Rx         0140  1  00 
   121)      2417.4  Rx         0140  1  00 
   122)      2437.4  Rx         0140  1  00 
   123)      2457.4  Rx         0140  1  00 
   124)      2477.4  Rx         0140  1  00 
   125)      2497.4  Rx         0140  1  00 
   126)      2517.4  Rx         0140  1  00 
   127)      2537.4  Rx         0140  1  00 
   128)      2557.4  Rx         0140  1  00 
   129)      2577.5  Rx         0140  1  00 
   130)      2597.4  Rx         0140  1  00 
   131)      2617.4  Rx         0140  1  00 
   132)      2637.4  Rx         0140  1  00 
   133)      2657.4  Rx         0140  1  00 
   134)      2677.4  Rx         0140  1  00 
   135)      2697.4  Rx         0140  1  00 
   136)      2717.4  Rx         0140  1  00 
   137)      2737.4  Rx         0140  1  00 
   138)      2757.4  Rx         0140  1  00 
   139)      2777.4  Rx         0140  1  00 
   140)      2797.4  Rx         0140  1  00 
   141)      2817.4  Rx         0140  1  00 
   142)      2837.5  Rx         0140  1  00 
   143)      2857.4  Rx         0140  1  00 
   144)      2877.4  Rx         0140  1  00 
   145)      2897.4  Rx         0140  1  00 
   146)      2917.5  Rx         0140  1  00 
   147)      2937.4  Rx         0140  1  00 
   148)      2957.4  Rx         0140  1  00 
   149)      2977.4  Rx         0140  1  00 
   150)      2997.5  Rx         0140  1  00 
   151)      3017.4  Rx         0140  1  00 
   152)      3037.4  Rx         0140  1  00 
   153)      3057.4  Rx         0140  1  00 
   154)      3077.5  Rx         0140  1  00 
   155)      3097.5  Rx         0140  1  00 
   156)      3117.4  Rx         0140  1  00 
   157)      3137.4  Rx         0140  1  00 
   158)      3157.5  Rx         0140  1  00 
   159)      3177.5  Rx         0140  1  00 
   160)      3197.4  Rx         0140  1  00 
   161)      3217.5  Rx         0140  1  00 
   162)      3237.5  Rx         0140  1  00 
   163)      3257.5  Rx         0140  1  00 
   164)      3277.4  Rx         0140  1  00 
   165)      3297.4  Rx         0140  1  00 
   166)      3317.5  Rx         0140  1  00 
   167)      3337.5  Rx         0140  1  00 
   168)      3357.4  Rx         0140  1  00 
   169)      3377.4  Rx         0140  1  00 
   170)      3397.5  Rx         0140  1  00 
   171)      3417.5  Rx         0140  1  00 
   172)      3437.4  Rx         0140  1  00 
   173)      3457.4  Rx         0140  1  00 
   174)      3477.5  Rx         0140  1  00 
   175)      3497.5  Rx         0140  1  00 
   176)      3517.4  Rx         0140  1  00 
   177)      3537.4  Rx         0140  1  00 
   178)      3557.5  Rx         0140  1  00 
   179)      3577.5  Rx         0140  1  00 
   180)      3597.5  Rx         0140  1  00 
   181)      3617.4  Rx         0140  1  00 
   182)      3637.5  Rx         0140  1  00 
   183)      3657.5  Rx         0140  1  00 
   184)      3677.6  Rx         0140  1  00 
   185)      3697.4  Rx         0140  1  00 
   186)      3717.5  Rx         0140  1  00 
   187)      3737.5  Rx         0140  1  00 
   188)      3757.5  Rx         0140  1  00 
   189)      3777.5  Rx         0140  1  00 
   190)      3797.5  Rx         0140  1  00 
   191)      3817.5  Rx         0140  1  00 
   192)      3837.5  Rx         0140  1  00 
   193)      3857.5  Rx         0140  1  00 
   194)      3877.5  Rx         0140  1  00 
   195)      3897.5  Rx         0140  1  00 
   196)      3917.5  Rx         0140  1  00 
   197)      3937.5  Rx         0140  1  00 
   198)      3957.4  Rx         0140  1  00 
   199)      3977.5  Rx         0140  1  00 
   200)      3997.5  Rx         0140  1  00 
   201)      4017.5  Rx         0140  1  00 
   202)      4037.4  Rx         0140  1  00 
   203)      4057.5  Rx         0140  1  00 
   204)      4077.5  Rx         0140  1  00 
   205)      4097.5  Rx         0140  1  00 
   206)      4117.4  Rx         0140  1  00 
   207)      4137.5  Rx         0140  1  00 
   208)      4157.5  Rx         0140  1  00 
   209)      4177.5  Rx         0140  1  00 
   210)      4197.5  Rx         0140  1  00 
   211)      4217.5  Rx         0140  1  00 
   212)      4237.5  Rx         0140  1  00 
   213)      4257.5  Rx         0140  1  00 
   214)      4277.5  Rx         0140  1  00 
   215)      4297.5  Rx         0140  1  00 
   216)      4317.5  Rx         0140  1  00 
   217)      4337.5  Rx         0140  1  00 
   218)      4357.5  Rx         0140  1  00 
   219)      4377.5  Rx         0140  1  00 
   220)      4397.5  Rx         0140  1  00 
   221)      4417.5  Rx         0140  1  00 
   222)      4437.5  Rx         0140  1  00 
   223)      4457.5  Rx         0140  1  00 
   224)      4477.5  Rx         0140  1  00 
   225)      4497.5  Rx         0140  1  00 
   226)      4517.5  Rx         0140  1  00 
   227)      4537.5  Rx         0140  1  00 
   228)      4557.5  Rx         0140  1  00 
   229)      4577.5  Rx         0140  1  00 
   230)      4597.5  Rx         0140  1  00 
   231)      4617.5  Rx         0140  1  00 
   232)      4637.5  Rx         0140  1  00 
   233)      4657.5  Rx         0140  1  00 
   234)      4677.5  Rx         0140  1  00 
   235)      4697.5  Rx         0140  1  00 
   236)      4717.5  Rx         0140  1  00 
   237)      4737.5  Rx         0140  1  00 
   238)      4757.5  Rx         0140  1  00 
   239)      4777.5  Rx         0140  1  00 
   240)      4797.5  Rx         0140  1  00 
   241)      4817.5  Rx         0140  1  00 
   242)      4837.5  Rx         0140  1  00 
   243)      4857.5  Rx         0140  1  00 
   244)      4877.5  Rx         0140  1  00 
   245)      4897.5  Rx         0140  1  00 
   246)      4917.5  Rx         0140  1  00 
   247)      4937.5  Rx         0140  1  00 
   248)      4957.5  Rx         0140  1  00 
   249)      4977.5  Rx         0140  1  00 
   250)      4997.5  Rx         0140  1  00 
   251)      5017.5  Rx         0140  1  00 
   252)      5037.5  Rx         0140  1  00 
   253)      5057.5  Rx         0140  1  00 
   254)      5077.5  Rx         0140  1  00 
   255)      5097.5  Rx         0140  1  00 
   256)      5117.5  Rx         0140  1  00 
   257)      5137.5  Rx         0140  1  00 
   258)      5157.5  Rx         0140  1  00 
   259)      5177.5  Rx         0140  1  00 
   260)      5197.5  Rx         0140  1  00 
   261)      5217.5  Rx         0140  1  00 
   262)      5237.5  Rx         0140  1  00 
   263)      5257.5  Rx         0140  1  00 
   264)      5277.5  Rx         0140  1  00 
   265)      5297.5  Rx         0140  1  00 
   266)      5317.5  Rx         0140  1  00 
   267)      5337.5  Rx         0140  1  00 
   268)      5357.5  Rx         0140  1  00 
   269)      5377.5  Rx         0140  1  00 
   270)      5397.5  Rx         0140  1  00 
   271)      5417.5  Rx         0140  1  00 
   272)      5437.5  Rx         0140  1  00 
   273)      5457.5  Rx         0140  1  00 
   274)      5477.5  Rx         0140  1  00 
   275)      5497.5  Rx         0140  1  00 
   276)      5517.5  Rx         0140  1  00 
   277)      5537.5  Rx         0140  1  00 
   278)      5557.5  Rx         0140  1  00 
   279)      5577.5  Rx         0140  1  00 
   280)      5597.5  Rx         0140  1  00 
   281)      5617.5  Rx         0140  1  00 
   282)      5637.5  Rx         0140  1  00 
   283)      5657.6  Rx         0140  1  00 
   284)      5677.5  Rx         0140  1  00 
   285)      5697.5  Rx         0140  1  00 
   286)      5717.5  Rx         0140  1  00 
   287)      5737.6  Rx         0140  1  00 
   288)      5757.5  Rx         0140  1  00 
   289)      5777.5  Rx         0140  1  00 
   290)      5797.5  Rx         0140  1  00 
   291)      5817.6  Rx         0140  1  00 
   292)      5837.5  Rx         0140  1  00 
   293)      5857.5  Rx         0140  1  00 
   294)      5877.5  Rx         0140  1  00 
   295)      5897.5  Rx         0140  1  00 
   296)      5917.5  Rx         0140  1  00 
   297)      5937.5  Rx         0140  1  00 
   298)      5957.5  Rx         0140  1  00 
   299)      5977.5  Rx         0140  1  00 
   300)      5997.5  Rx         0140  1  00 
   301)      6017.5  Rx         0140  1  00 
   302)      6037.5  Rx         0140  1  00 
   303)      6057.5  Rx         0140  1  00 
   304)      6077.5  Rx         0140  1  00 
   305)      6097.5  Rx         0140  1  00 
   306)      6117.5  Rx         0140  1  00 
   307)      6137.5  Rx         0140  1  00 
   308)      6157.6  Rx         0140  1  00 
   309)      6177.5  Rx         0140  1  00 
   310)      6197.5  Rx         0140  1  00 
   311)      6217.6  Rx         0140  1  00 
   312)      6237.6  Rx         0140  1  00 
   313)      6257.5  Rx         0140  1  00 
   314)      6277.5  Rx         0140  1  00 
   315)      6297.6  Rx         0140  1  00 
   316)      6317.6  Rx         0140  1  00 
   317)      6337.6  Rx         0140  1  00 
   318)      6357.5  Rx         0140  1  00 
   319)      6377.5  Rx         0140  1  00 
   320)      6397.6  Rx         0140  1  00 
   321)      6417.6  Rx         0140  1  00 
   322)      6437.5  Rx         0140  1  00 
   323)      6457.5  Rx         0140  1  00 
   324)      6477.6  Rx         0140  1  00 
   325)      6497.6  Rx         0140  1  00 
   326)      6517.5  Rx         0140  1  00 
   327)      6537.5  Rx         0140  1  00 
   328)      6557.6  Rx         0140  1  00 
   329)      6577.6  Rx         0140  1  00 
   330)      6597.5  Rx         0140  1  00 
   331)      6617.5  Rx         0140  1  00 
   332)      6637.6  Rx         0140  1  00 
   333)      6657.6  Rx         0140  1  00 
   334)      6677.6  Rx         0140  1  00 
   335)      6697.5  Rx         0140  1  00 
   336)      6717.6  Rx         0140  1  00 
   337)      6737.6  Rx         0140  1  00 
   338)      6757.6  Rx         0140  1  00 
   339)      6777.5  Rx         0140  1  00 
   340)      6797.6  Rx         0140  1  00 
   341)      6817.6  Rx         0140  1  00 
   342)      6834.5  Rx         0616  8  23 02 40 01 00 20 02 05 
   343)      6835.2  Rx         0596  8  60 02 40 01 00 00 00 00 
   344)      6835.8  Rx         0616  8  40 02 40 00 00 00 00 00 
   345)      6836.4  Rx         0596  8  43 02 40 00 00 20 03 03 
   346)      6837.0  Rx         0616  8  40 02 40 02 00 00 00 00 
   347)      6837.6  Rx         0596  8  43 02 40 02 00 39 30 00 
   348)      6837.8  Rx         0140  1  00 
   349)      6838.3  Rx         0616  8  40 03 40 00 00 00 00 00 
   350)      6838.9  Rx         0596  8  43 03 40 00 00 00 02 02 
   351)      6839.9  Rx         0616  8  40 00 40 5F 00 00 00 00 
   352)      6840.4  Rx         0596  8  43 00 40 5F 00 00 3C 00 
   353)      6841.1  Rx         0616  8  40 00 40 60 00 00 00 00 
   354)      6841.7  Rx         0596  8  43 00 40 60 64 00 2C 01 
   355)      6842.3  Rx         0616  8  40 00 40 61 00 00 00 00 
   356)      6842.9  Rx         0596  8  43 00 40 61 08 00 00 00 
   357)      6843.5  Rx         0616  8  40 00 40 62 00 00 00 00 
   358)      6844.1  Rx         0596  8  43 00 40 62 01 01 DF 07 
   359)      6844.8  Rx         0616  8  40 00 40 63 00 00 00 00 
   360)      6845.4  Rx         0596  8  43 00 40 63 3B 10 39 30 
   361)      6846.1  Rx         0616  8  40 00 40 5E 00 00 00 00 
   362)      6846.6  Rx         0596  8  43 00 40 5E 71 02 FF FF 
   363)      6857.5  Rx         0140  1  00 
   364)      6877.6  Rx         0140  1  00 
   365)      6897.6  Rx         0140  1  00 
   366)      6917.6  Rx         0140  1  00 
   367)      6937.5  Rx         0140  1  00 
   368)      6957.6  Rx         0140  1  00 
   369)      6977.6  Rx         0140  1  00 
   370)      6997.6  Rx         0140  1  00 
   371)      7017.6  Rx         0140  1  00 
   372)      7037.5  Rx         0140  1  00 
   373)      7057.6  Rx         0140  1  00 
   374)      7077.6  Rx         0140  1  00 
   375)      7097.6  Rx         0140  1  00 
   376)      7117.5  Rx         0140  1  00 
   377)      7137.6  Rx         0140  1  00 
   378)      7157.6  Rx         0140  1  00 
   379)      7177.6  Rx         0140  1  00 
   380)      7197.6  Rx         0140  1  00 
   381)      7217.6  Rx         0140  1  00 
   382)      7237.6  Rx         0140  1  00 
   383)      7257.6  Rx         0140  1  00 
   384)      7277.6  Rx         0140  1  00 
   385)      7297.6  Rx         0140  1  00 
   386)      7317.6  Rx         0140  1  00 
   387)      7337.6  Rx         0140  1  00 
   388)      7357.6  Rx         0140  1  00 
   389)      7377.6  Rx         0140  1  00 
   390)      7397.6  Rx         0140  1  00 
   391)      7417.6  Rx         0140  1  00 
   392)      7437.6  Rx         0140  1  00 
   393)      7457.6  Rx         0140  1  00 
   394)      7477.6  Rx         0140  1  00 
   395)      7497.6  Rx         0140  1  00 
   396)      7517.6  Rx         0140  1  00 
   397)      7537.6  Rx         0140  1  00 
   398)      7557.6  Rx         0140  1  00 
   399)      7577.6  Rx         0140  1  00 
   400)      7597.6  Rx         0140  1  00 
   401)      7617.6  Rx         0140  1  00 
   402)      7637.6  Rx         0140  1  00 
   403)      7657.6  Rx         0140  1  00 
   404)      7678.8  Rx         0140  1  00 
   405)      7737.6  Rx         0140  1  00 
   406)      7757.6  Rx         0140  1  00 
   407)      7777.6  Rx         0140  1  00 
   408)      7797.6  Rx         0140  1  00 
   409)      7817.6  Rx         0140  1  00 
   410)      7837.6  Rx         0140  1  00 
   411)      7857.6  Rx         0140  1  00 
   412)      7877.6  Rx         0140  1  00 
   413)      7897.6  Rx         0140  1  00 
   414)      7917.6  Rx         0140  1  00 
   415)      7937.6  Rx         0140  1  00 
   416)      7957.6  Rx         0140  1  00 
   417)      7977.6  Rx         0140  1  00 
   418)      7997.6  Rx         0140  1  00 
   419)      8017.6  Rx         0140  1  00 
   420)      8037.6  Rx         0140  1  00 
   421)      8057.6  Rx         0140  1  00 
   422)      8077.6  Rx         0140  1  00 
   423)      8097.6  Rx         0140  1  00 
   424)      8117.6  Rx         0140  1  00 
   425)      8137.6  Rx         0140  1  00 
   426)      8157.6  Rx         0140  1  00 
   427)      8177.6  Rx         0140  1  00 
   428)      8197.6  Rx         0140  1  00 
   429)      8217.6  Rx         0140  1  00 
   430)      8237.6  Rx         0140  1  00 
   431)      8257.6  Rx         0140  1  00 
   432)      8277.6  Rx         0140  1  00 
   433)      8297.6  Rx         0140  1  00 
   434)      8317.6  Rx         0140  1  00 
   435)      8337.6  Rx         0140  1  00 
   436)      8357.6  Rx         0140  1  00 
   437)      8377.6  Rx         0140  1  00 
   438)      8397.6  Rx         0140  1  00 
   439)      8417.6  Rx         0140  1  00 
   440)      8437.6  Rx         0140  1  00 
   441)      8457.6  Rx         0140  1  00 
   442)      8477.6  Rx         0140  1  00 
   443)      8497.6  Rx         0140  1  00 
   444)      8517.6  Rx         0140  1  00 
   445)      8537.6  Rx         0140  1  00 
   446)      8557.6  Rx         0140  1  00 
   447)      8577.6  Rx         0140  1  00 
   448)      8597.6  Rx         0140  1  00 
   449)      8617.6  Rx         0140  1  00 
   450)      8637.6  Rx         0140  1  00 
   451)      8657.6  Rx         0140  1  00 
   452)      8677.6  Rx         0140  1  00 
   453)      8697.6  Rx         0140  1  00 
   454)      8717.6  Rx         0140  1  00 
   455)      8737.6  Rx         0140  1  00 
   456)      8757.6  Rx         0140  1  00 
   457)      8777.6  Rx         0140  1  00 
   458)      8797.6  Rx         0140  1  00 
   459)      8817.6  Rx         0140  1  00 
   460)      8837.6  Rx         0140  1  00 
   461)      8857.6  Rx         0140  1  00 
   462)      8877.6  Rx         0140  1  00 
   463)      8881.5  Rx         0616  8  40 FF 3F 00 00 00 00 00 
   464)      8882.1  Rx         0596  8  4F FF 3F 00 27 00 00 00 
   465)      8882.7  Rx         0616  8  23 01 40 00 FF FF FF FF 
   466)      8883.2  Rx         0616  8  40 FF 3F 00 00 00 00 00 
   467)      8883.7  Rx         0596  8  60 01 40 00 00 00 00 00 
   468)      8884.2  Rx         0596  8  4F FF 3F 00 27 00 00 00 
   469)      8884.8  Rx         0616  8  23 01 40 01 FF FF FF FF 
   470)      8885.3  Rx         0616  8  40 FF 3F 00 00 00 00 00 
   471)      8885.8  Rx         0596  8  60 01 40 01 00 00 00 00 
   472)      8886.3  Rx         0596  8  4F FF 3F 00 27 00 00 00 
   473)      8886.9  Rx         0616  8  23 01 40 02 FF FF FF FF 
   474)      8887.5  Rx         0616  8  40 FF 3F 00 00 00 00 00 
   475)      8887.9  Rx         0596  8  60 01 40 02 00 00 00 00 
   476)      8888.4  Rx         0596  8  4F FF 3F 00 27 00 00 00 
   477)      8889.1  Rx         0616  8  23 01 40 03 FF FF FF FF 
   478)      8889.5  Rx         0616  8  40 FF 3F 00 00 00 00 00 
   479)      8890.1  Rx         0596  8  60 01 40 03 00 00 00 00 
   480)      8890.5  Rx         0596  8  4F FF 3F 00 27 00 00 00 
   481)      8891.2  Rx         0616  8  23 01 40 04 FF FF FF FF 
   482)      8891.7  Rx         0616  8  40 FF 3F 00 00 00 00 00 
   483)      8892.2  Rx         0596  8  60 01 40 04 00 00 00 00 
   484)      8892.7  Rx         0596  8  4F FF 3F 00 27 00 00 00 
   485)      8893.3  Rx         0616  8  23 01 40 05 FF FF FF FF 
   486)      8893.8  Rx         0616  8  40 FF 3F 00 00 00 00 00 
   487)      8894.3  Rx         0596  8  60 01 40 05 00 00 00 00 
   488)      8894.7  Rx         0596  8  4F FF 3F 00 27 00 00 00 
   489)      8895.4  Rx         0616  8  23 01 40 06 FF FF FF FF 
   490)      8895.9  Rx         0616  8  40 FF 3F 00 00 00 00 00 
   491)      8896.4  Rx         0596  8  60 01 40 06 00 00 00 00 
   492)      8896.9  Rx         0596  8  4F FF 3F 00 27 00 00 00 
   493)      8897.5  Rx         0616  8  23 01 40 07 FF FF FF FF 
   494)      8897.7  Rx         0140  1  00 
   495)      8898.2  Rx         0616  8  40 FF 3F 00 00 00 00 00 
   496)      8899.1  Rx         0596  8  60 01 40 07 00 00 00 00 
   497)      8899.5  Rx         0596  8  4F FF 3F 00 27 00 00 00 
   498)      8900.2  Rx         0616  8  23 01 40 08 FF FF FF FF 
   499)      8900.7  Rx         0616  8  40 FF 3F 00 00 00 00 00 
   500)      8901.1  Rx         0596  8  60 01 40 08 00 00 00 00 
   501)      8901.7  Rx         0596  8  4F FF 3F 00 27 00 00 00 
   502)      8902.3  Rx         0616  8  23 01 40 11 38 38 38 38 
   503)      8902.8  Rx         0616  8  40 FF 3F 00 00 00 00 00 
   504)      8903.3  Rx         0596  8  60 01 40 11 00 00 00 00 
   505)      8903.7  Rx         0596  8  4F FF 3F 00 27 00 00 00 
   506)      8904.4  Rx         0616  8  23 01 40 12 38 0A 04 0B 
   507)      8904.9  Rx         0616  8  40 FF 3F 00 00 00 00 00 
   508)      8905.4  Rx         0596  8  60 01 40 12 00 00 00 00 
   509)      8905.8  Rx         0596  8  4F FF 3F 00 27 00 00 00 
   510)      8906.4  Rx         0616  8  23 01 40 13 23 00 37 04 
   511)      8906.9  Rx         0616  8  40 FF 3F 00 00 00 00 00 
   512)      8907.4  Rx         0596  8  60 01 40 13 00 00 00 00 
   513)      8907.9  Rx         0596  8  4F FF 3F 00 27 00 00 00 
   514)      8908.6  Rx         0616  8  23 01 40 14 00 00 00 0C 
   515)      8909.1  Rx         0616  8  40 FF 3F 00 00 00 00 00 
   516)      8909.6  Rx         0596  8  60 01 40 14 00 00 00 00 
   517)      8910.0  Rx         0596  8  4F FF 3F 00 27 00 00 00 
   518)      8910.7  Rx         0616  8  23 01 40 15 00 00 FF FF 
   519)      8911.2  Rx         0616  8  40 FF 3F 00 00 00 00 00 
   520)      8911.6  Rx         0596  8  60 01 40 15 00 00 00 00 
   521)      8912.2  Rx         0596  8  4F FF 3F 00 27 00 00 00 
   522)      8912.8  Rx         0616  8  23 01 40 16 01 00 00 01 
   523)      8913.3  Rx         0616  8  40 FF 3F 00 00 00 00 00 
   524)      8913.7  Rx         0596  8  60 01 40 16 00 00 00 00 
   525)      8914.2  Rx         0596  8  4F FF 3F 00 27 00 00 00 
   526)      8914.9  Rx         0616  8  23 01 40 17 FF FF FF 00 
   527)      8915.4  Rx         0616  8  40 FF 3F 00 00 00 00 00 
   528)      8915.9  Rx         0596  8  60 01 40 17 00 00 00 00 
   529)      8916.3  Rx         0596  8  4F FF 3F 00 27 00 00 00 
   530)      8917.0  Rx         0616  8  23 01 40 18 FF FF FF FF 
   531)      8917.5  Rx         0616  8  40 FF 3F 00 00 00 00 00 
   532)      8917.7  Rx         0140  1  00 
   533)      8918.2  Rx         0596  8  60 01 40 18 00 00 00 00 
   534)      8919.5  Rx         0596  8  4F FF 3F 00 27 00 00 00 
   535)      8920.1  Rx         0616  8  23 01 40 09 01 01 2C 01 
   536)      8920.6  Rx         0616  8  40 FF 3F 00 00 00 00 00 
   537)      8921.1  Rx         0596  8  60 01 40 09 00 00 00 00 
   538)      8921.6  Rx         0596  8  4F FF 3F 00 27 00 00 00 
   539)      8922.2  Rx         0616  8  23 01 40 0A 2C 01 01 2C 
   540)      8922.7  Rx         0616  8  40 FF 3F 00 00 00 00 00 
   541)      8923.2  Rx         0596  8  60 01 40 0A 00 00 00 00 
   542)      8923.7  Rx         0596  8  4F FF 3F 00 27 00 00 00 
   543)      8924.3  Rx         0616  8  23 01 40 0B 01 2C 01 01 
   544)      8924.8  Rx         0616  8  40 FF 3F 00 00 00 00 00 
   545)      8925.3  Rx         0596  8  60 01 40 0B 00 00 00 00 
   546)      8925.8  Rx         0596  8  4F FF 3F 00 27 00 00 00 
   547)      8926.4  Rx         0616  8  23 01 40 0C FF FF FF FF 
   548)      8927.0  Rx         0616  8  40 FF 3F 00 00 00 00 00 
   549)      8927.5  Rx         0596  8  60 01 40 0C 00 00 00 00 
   550)      8927.9  Rx         0596  8  4F FF 3F 00 27 00 00 00 
   551)      8928.6  Rx         0616  8  23 01 40 0D FF FF FF FF 
   552)      8929.1  Rx         0616  8  40 FF 3F 00 00 00 00 00 
   553)      8929.6  Rx         0596  8  60 01 40 0D 00 00 00 00 
   554)      8930.1  Rx         0596  8  4F FF 3F 00 27 00 00 00 
   555)      8930.8  Rx         0616  8  23 01 40 0E FF FF FF FF 
   556)      8931.3  Rx         0616  8  40 FF 3F 00 00 00 00 00 
   557)      8931.7  Rx         0596  8  60 01 40 0E 00 00 00 00 
   558)      8932.2  Rx         0596  8  4F FF 3F 00 27 00 00 00 
   559)      8932.9  Rx         0616  8  23 01 40 0F FF FF FF FF 
   560)      8933.4  Rx         0616  8  40 FF 3F 00 00 00 00 00 
   561)      8933.9  Rx         0596  8  60 01 40 0F 00 00 00 00 
   562)      8934.3  Rx         0596  8  4F FF 3F 00 27 00 00 00 
   563)      8935.0  Rx         0616  8  23 01 40 10 FF FF FF FF 
   564)      8935.5  Rx         0616  8  40 FF 3F 00 00 00 00 00 
   565)      8936.0  Rx         0596  8  60 01 40 10 00 00 00 00 
   566)      8936.5  Rx         0596  8  4F FF 3F 00 27 00 00 00 
   567)      8937.1  Rx         0616  8  23 01 40 19 5F 5F 5F 33 
   568)      8937.6  Rx         0616  8  40 FF 3F 00 00 00 00 00 
   569)      8937.8  Rx         0140  1  00 
   570)      8938.3  Rx         0596  8  60 01 40 19 00 00 00 00 
   571)      8938.8  Rx         0596  8  4F FF 3F 00 27 00 00 00 
   572)      8939.4  Rx         0616  8  23 01 40 1A 5F 5F 5F 5F 
   573)      8939.9  Rx         0616  8  40 FF 3F 00 00 00 00 00 
   574)      8940.4  Rx         0596  8  60 01 40 1A 00 00 00 00 
   575)      8940.9  Rx         0596  8  4F FF 3F 00 27 00 00 00 
   576)      8941.5  Rx         0616  8  23 01 40 1B 7E 7E 7E 7E 
   577)      8942.0  Rx         0616  8  40 FF 3F 00 00 00 00 00 
   578)      8942.5  Rx         0596  8  60 01 40 1B 00 00 00 00 
   579)      8943.0  Rx         0596  8  4F FF 3F 00 27 00 00 00 
   580)      8943.6  Rx         0616  8  23 01 40 1C 7E 7E 7E 7E 
   581)      8944.1  Rx         0616  8  40 FF 3F 00 00 00 00 00 
   582)      8944.6  Rx         0596  8  60 01 40 1C 00 00 00 00 
   583)      8945.1  Rx         0596  8  4F FF 3F 00 27 00 00 00 
   584)      8945.7  Rx         0616  8  23 01 40 1D 7E 7E 7E 7E 
   585)      8946.2  Rx         0616  8  40 FF 3F 00 00 00 00 00 
   586)      8946.7  Rx         0596  8  60 01 40 1D 00 00 00 00 
   587)      8947.2  Rx         0596  8  4F FF 3F 00 27 00 00 00 
   588)      8947.8  Rx         0616  8  23 01 40 1E 7E 7E 7E 7E 
   589)      8948.3  Rx         0616  8  40 FF 3F 00 00 00 00 00 
   590)      8948.8  Rx         0596  8  60 01 40 1E 00 00 00 00 
   591)      8949.3  Rx         0596  8  4F FF 3F 00 27 00 00 00 
   592)      8949.9  Rx         0616  8  23 01 40 1F FF FF FF FF 
   593)      8950.4  Rx         0616  8  40 FF 3F 00 00 00 00 00 
   594)      8950.9  Rx         0596  8  60 01 40 1F 00 00 00 00 
   595)      8951.4  Rx         0596  8  4F FF 3F 00 27 00 00 00 
   596)      8952.0  Rx         0616  8  23 01 40 20 FF FF FF FF 
   597)      8952.6  Rx         0616  8  40 FF 3F 00 00 00 00 00 
   598)      8953.0  Rx         0596  8  60 01 40 20 00 00 00 00 
   599)      8953.5  Rx         0596  8  4F FF 3F 00 27 00 00 00 
   600)      8954.2  Rx         0616  8  23 01 40 21 FF FF FF FF 
   601)      8954.6  Rx         0616  8  40 FF 3F 00 00 00 00 00 
   602)      8955.2  Rx         0596  8  60 01 40 21 00 00 00 00 
   603)      8955.6  Rx         0596  8  4F FF 3F 00 27 00 00 00 
   604)      8956.3  Rx         0616  8  23 01 40 22 FF FF FF FF 
   605)      8956.8  Rx         0616  8  40 FF 3F 00 00 00 00 00 
   606)      8957.3  Rx         0596  8  60 01 40 22 00 00 00 00 
   607)      8957.7  Rx         0596  8  4F FF 3F 00 27 00 00 00 
   608)      8958.0  Rx         0140  1  00 
   609)      8958.4  Rx         0616  8  23 01 40 23 FF FF FF FF 
   610)      8959.0  Rx         0616  8  40 FF 3F 00 00 00 00 00 
   611)      8960.5  Rx         0596  8  60 01 40 23 00 00 00 00 
   612)      8960.9  Rx         0596  8  4F FF 3F 00 27 00 00 00 
   613)      8961.6  Rx         0616  8  23 01 40 24 FF FF FF FF 
   614)      8962.1  Rx         0616  8  40 FF 3F 00 00 00 00 00 
   615)      8962.5  Rx         0596  8  60 01 40 24 00 00 00 00 
   616)      8963.0  Rx         0596  8  4F FF 3F 00 27 00 00 00 
   617)      8963.7  Rx         0616  8  23 01 40 25 FF FF FF FF 
   618)      8964.2  Rx         0616  8  40 FF 3F 00 00 00 00 00 
   619)      8964.6  Rx         0596  8  60 01 40 25 00 00 00 00 
   620)      8965.1  Rx         0596  8  4F FF 3F 00 27 00 00 00 
   621)      8965.8  Rx         0616  8  23 01 40 26 FF FF FF FF 
   622)      8966.3  Rx         0616  8  40 FF 3F 00 00 00 00 00 
   623)      8966.8  Rx         0596  8  60 01 40 26 00 00 00 00 
   624)      8967.2  Rx         0596  8  4F FF 3F 00 27 00 00 00 
   625)      8967.9  Rx         0616  8  23 01 40 27 FF FF FF FF 
   626)      8968.4  Rx         0616  8  40 FF 3F 00 00 00 00 00 
   627)      8968.9  Rx         0596  8  60 01 40 27 00 00 00 00 
   628)      8969.3  Rx         0596  8  4F FF 3F 00 27 00 00 00 
   629)      8970.0  Rx         0616  8  23 01 40 28 FF FF FF FF 
   630)      8970.5  Rx         0616  8  40 FF 3F 00 00 00 00 00 
   631)      8970.9  Rx         0596  8  60 01 40 28 00 00 00 00 
   632)      8971.5  Rx         0596  8  4F FF 3F 00 27 00 00 00 
   633)      8972.1  Rx         0616  8  23 01 40 29 FF FF FF FF 
   634)      8972.6  Rx         0616  8  40 FF 3F 00 00 00 00 00 
   635)      8973.1  Rx         0596  8  60 01 40 29 00 00 00 00 
   636)      8973.6  Rx         0596  8  4F FF 3F 00 27 00 00 00 
   637)      8974.2  Rx         0616  8  23 01 40 2A FF FF FF FF 
   638)      8974.7  Rx         0616  8  40 FF 3F 00 00 00 00 00 
   639)      8975.2  Rx         0596  8  60 01 40 2A 00 00 00 00 
   640)      8975.7  Rx         0596  8  4F FF 3F 00 27 00 00 00 
   641)      8976.3  Rx         0616  8  23 01 40 2B FF FF FF FF 
   642)      8976.8  Rx         0616  8  40 FF 3F 00 00 00 00 00 
   643)      8977.3  Rx         0596  8  60 01 40 2B 00 00 00 00 
   644)      8977.8  Rx         0596  8  4F FF 3F 00 27 00 00 00 
   645)      8978.0  Rx         0140  1  00 
   646)      8978.5  Rx         0616  8  23 01 40 2C FF FF FF FF 
   647)      8979.0  Rx         0616  8  40 FF 3F 00 00 00 00 00 
   648)      8979.5  Rx         0596  8  60 01 40 2C 00 00 00 00 
   649)      8980.9  Rx         0596  8  4F FF 3F 00 27 00 00 00 
   650)      8981.5  Rx         0616  8  23 01 40 2D FF FF FF FF 
   651)      8982.0  Rx         0616  8  40 FF 3F 00 00 00 00 00 
   652)      8982.5  Rx         0596  8  60 01 40 2D 00 00 00 00 
   653)      8983.0  Rx         0596  8  4F FF 3F 00 27 00 00 00 
   654)      8983.6  Rx         0616  8  23 01 40 2E FF FF FF FF 
   655)      8984.1  Rx         0616  8  40 FF 3F 00 00 00 00 00 
   656)      8984.6  Rx         0596  8  60 01 40 2E 00 00 00 00 
   657)      8985.1  Rx         0596  8  4F FF 3F 00 27 00 00 00 
   658)      8985.8  Rx         0616  8  23 01 40 2F FF FF FF FF 
   659)      8986.2  Rx         0616  8  40 FF 3F 00 00 00 00 00 
   660)      8986.7  Rx         0596  8  60 01 40 2F 00 00 00 00 
   661)      8987.2  Rx         0596  8  4F FF 3F 00 27 00 00 00 
   662)      8987.9  Rx         0616  8  23 01 40 30 FF FF FF FF 
   663)      8988.4  Rx         0616  8  40 FF 3F 00 00 00 00 00 
   664)      8988.9  Rx         0596  8  60 01 40 30 00 00 00 00 
   665)      8989.3  Rx         0596  8  4F FF 3F 00 27 00 00 00 
   666)      8990.0  Rx         0616  8  23 01 40 31 FF FF FF FF 
   667)      8990.5  Rx         0616  8  40 FF 3F 00 00 00 00 00 
   668)      8991.0  Rx         0596  8  60 01 40 31 00 00 00 00 
   669)      8991.5  Rx         0596  8  4F FF 3F 00 27 00 00 00 
   670)      8992.2  Rx         0616  8  23 01 40 32 FF FF FF FF 
   671)      8992.7  Rx         0616  8  40 FF 3F 00 00 00 00 00 
   672)      8993.2  Rx         0596  8  60 01 40 32 00 00 00 00 
   673)      8993.7  Rx         0596  8  4F FF 3F 00 27 00 00 00 
   674)      8994.3  Rx         0616  8  23 01 40 33 FF FF FF FF 
   675)      8994.8  Rx         0616  8  40 FF 3F 00 00 00 00 00 
   676)      8995.3  Rx         0596  8  60 01 40 33 00 00 00 00 
   677)      8995.8  Rx         0596  8  4F FF 3F 00 27 00 00 00 
   678)      8996.4  Rx         0616  8  23 01 40 34 FF FF FF FF 
   679)      8996.9  Rx         0616  8  40 FF 3F 00 00 00 00 00 
   680)      8997.4  Rx         0596  8  60 01 40 34 00 00 00 00 
   681)      8997.7  Rx         0140  1  00 
   682)      8998.1  Rx         0596  8  4F FF 3F 00 27 00 00 00 
   683)      8998.8  Rx         0616  8  23 01 40 35 FF FF FF FF 
   684)      8999.3  Rx         0616  8  40 FF 3F 00 00 00 00 00 
   685)      8999.7  Rx         0596  8  60 01 40 35 00 00 00 00 
   686)      9001.4  Rx         0596  8  4F FF 3F 00 27 00 00 00 
   687)      9002.0  Rx         0616  8  23 01 40 36 FF FF FF FF 
   688)      9002.5  Rx         0616  8  40 FF 3F 00 00 00 00 00 
   689)      9003.0  Rx         0596  8  60 01 40 36 00 00 00 00 
   690)      9003.5  Rx         0596  8  4F FF 3F 00 27 00 00 00 
   691)      9004.1  Rx         0616  8  23 01 40 37 FF FF FF FF 
   692)      9004.6  Rx         0616  8  40 FF 3F 00 00 00 00 00 
   693)      9005.1  Rx         0596  8  60 01 40 37 00 00 00 00 
   694)      9005.6  Rx         0596  8  4F FF 3F 00 27 00 00 00 
   695)      9006.2  Rx         0616  8  23 01 40 38 FF FF FF FF 
   696)      9006.7  Rx         0616  8  40 FF 3F 00 00 00 00 00 
   697)      9007.2  Rx         0596  8  60 01 40 38 00 00 00 00 
   698)      9007.7  Rx         0596  8  4F FF 3F 00 27 00 00 00 
   699)      9008.4  Rx         0616  8  23 01 40 39 FF FF FF FF 
   700)      9008.9  Rx         0616  8  40 FF 3F 00 00 00 00 00 
   701)      9009.3  Rx         0596  8  60 01 40 39 00 00 00 00 
   702)      9009.9  Rx         0596  8  4F FF 3F 00 27 00 00 00 
   703)      9010.5  Rx         0616  8  23 01 40 3A FF FF FF FF 
   704)      9011.0  Rx         0616  8  40 FF 3F 00 00 00 00 00 
   705)      9011.5  Rx         0596  8  60 01 40 3A 00 00 00 00 
   706)      9011.9  Rx         0596  8  4F FF 3F 00 27 00 00 00 
   707)      9012.7  Rx         0616  8  23 01 40 3B FF FF FF FF 
   708)      9013.1  Rx         0616  8  40 FF 3F 00 00 00 00 00 
   709)      9013.7  Rx         0596  8  60 01 40 3B 00 00 00 00 
   710)      9014.1  Rx         0596  8  4F FF 3F 00 27 00 00 00 
   711)      9014.8  Rx         0616  8  23 01 40 3C FF FF FF FF 
   712)      9015.3  Rx         0616  8  40 FF 3F 00 00 00 00 00 
   713)      9015.7  Rx         0596  8  60 01 40 3C 00 00 00 00 
   714)      9016.2  Rx         0596  8  4F FF 3F 00 27 00 00 00 
   715)      9016.9  Rx         0616  8  23 01 40 3D FF FF FF FF 
   716)      9017.4  Rx         0616  8  40 FF 3F 00 00 00 00 00 
   717)      9017.6  Rx         0140  1  00 
   718)      9018.1  Rx         0596  8  60 01 40 3D 00 00 00 00 
   719)      9018.6  Rx         0596  8  4F FF 3F 00 27 00 00 00 
   720)      9019.2  Rx         0616  8  23 01 40 3E FF FF FF FF 
   721)      9019.7  Rx         0616  8  40 FF 3F 00 00 00 00 00 
   722)      9020.2  Rx         0596  8  60 01 40 3E 00 00 00 00 
   723)      9020.7  Rx         0596  8  4F FF 3F 00 27 00 00 00 
   724)      9021.3  Rx         0616  8  23 01 40 3F FF FF FF FF 
   725)      9021.8  Rx         0616  8  40 FF 3F 00 00 00 00 00 
   726)      9022.3  Rx         0596  8  60 01 40 3F 00 00 00 00 
   727)      9022.8  Rx         0596  8  4F FF 3F 00 27 00 00 00 
   728)      9023.4  Rx         0616  8  23 01 40 40 FF FF FF FF 
   729)      9023.9  Rx         0616  8  40 FF 3F 00 00 00 00 00 
   730)      9024.4  Rx         0596  8  60 01 40 40 00 00 00 00 
   731)      9024.9  Rx         0596  8  4F FF 3F 00 27 00 00 00 
   732)      9025.5  Rx         0616  8  23 01 40 41 5F 5F 31 FF 
   733)      9026.0  Rx         0616  8  40 FF 3F 00 00 00 00 00 
   734)      9026.5  Rx         0596  8  60 01 40 41 00 00 00 00 
   735)      9027.0  Rx         0596  8  4F FF 3F 00 27 00 00 00 
   736)      9027.6  Rx         0616  8  23 01 40 42 5F 5F 5F 5F 
   737)      9028.1  Rx         0616  8  40 FF 3F 00 00 00 00 00 
   738)      9028.6  Rx         0596  8  60 01 40 42 00 00 00 00 
   739)      9029.1  Rx         0596  8  4F FF 3F 00 27 00 00 00 
   740)      9029.7  Rx         0616  8  23 01 40 43 5F 32 00 5F 
   741)      9030.2  Rx         0616  8  40 FF 3F 00 00 00 00 00 
   742)      9030.7  Rx         0596  8  60 01 40 43 00 00 00 00 
   743)      9031.2  Rx         0596  8  4F FF 3F 00 27 00 00 00 
   744)      9031.8  Rx         0616  8  23 01 40 44 5F 5F 5F 5F 
   745)      9032.3  Rx         0616  8  40 FF 3F 00 00 00 00 00 
   746)      9032.8  Rx         0596  8  60 01 40 44 00 00 00 00 
   747)      9033.3  Rx         0596  8  4F FF 3F 00 27 00 00 00 
   748)      9033.9  Rx         0616  8  23 01 40 45 34 00 5F 5F 
   749)      9034.4  Rx         0616  8  40 FF 3F 00 00 00 00 00 
   750)      9034.9  Rx         0596  8  60 01 40 45 00 00 00 00 
   751)      9035.4  Rx         0596  8  4F FF 3F 00 27 00 00 00 
   752)      9036.1  Rx         0616  8  23 01 40 46 5F 5F 5F 5F 
   753)      9036.6  Rx         0616  8  40 FF 3F 00 00 00 00 00 
   754)      9037.0  Rx         0596  8  60 01 40 46 00 00 00 00 
   755)      9037.5  Rx         0596  8  4F FF 3F 00 27 00 00 00 
   756)      9037.8  Rx         0140  1  00 
   757)      9038.2  Rx         0616  8  23 01 40 47 00 5F 5F 5F 
   758)      9038.7  Rx         0616  8  40 FF 3F 00 00 00 00 00 
   759)      9039.2  Rx         0596  8  60 01 40 47 00 00 00 00 
   760)      9039.7  Rx         0596  8  4F FF 3F 00 27 00 00 00 
   761)      9040.3  Rx         0616  8  23 01 40 48 00 02 00 38 
   762)      9040.8  Rx         0616  8  40 FF 3F 00 00 00 00 00 
   763)      9042.4  Rx         0596  8  60 01 40 48 00 00 00 00 
   764)      9042.8  Rx         0596  8  4F FF 3F 00 27 00 00 00 
   765)      9043.5  Rx         0616  8  23 01 40 49 01 00 14 02 
   766)      9044.0  Rx         0616  8  40 FF 3F 00 00 00 00 00 
   767)      9044.5  Rx         0596  8  60 01 40 49 00 00 00 00 
   768)      9044.9  Rx         0596  8  4F FF 3F 00 27 00 00 00 
   769)      9045.6  Rx         0616  8  23 01 40 4A 10 1E 10 14 
   770)      9046.1  Rx         0616  8  40 FF 3F 00 00 00 00 00 
   771)      9046.6  Rx         0596  8  60 01 40 4A 00 00 00 00 
   772)      9047.0  Rx         0596  8  4F FF 3F 00 27 00 00 00 
   773)      9047.7  Rx         0616  8  23 01 40 4B 00 02 38 1E 
   774)      9048.2  Rx         0616  8  40 FF 3F 00 00 00 00 00 
   775)      9048.6  Rx         0596  8  60 01 40 4B 00 00 00 00 
   776)      9049.1  Rx         0596  8  4F FF 3F 00 27 00 00 00 
   777)      9049.8  Rx         0616  8  23 01 40 4C 00 FF 38 01 
   778)      9050.3  Rx         0616  8  40 FF 3F 00 00 00 00 00 
   779)      9050.7  Rx         0596  8  60 01 40 4C 00 00 00 00 
   780)      9051.2  Rx         0596  8  4F FF 3F 00 27 00 00 00 
   781)      9051.8  Rx         0616  8  23 01 40 4D FF 2C 01 FF 
   782)      9052.4  Rx         0616  8  40 FF 3F 00 00 00 00 00 
   783)      9052.8  Rx         0596  8  60 01 40 4D 00 00 00 00 
   784)      9053.3  Rx         0596  8  4F FF 3F 00 27 00 00 00 
   785)      9054.0  Rx         0616  8  23 01 40 4E 4B FF FF FF 
   786)      9054.4  Rx         0616  8  40 FF 3F 00 00 00 00 00 
   787)      9055.0  Rx         0596  8  60 01 40 4E 00 00 00 00 
   788)      9055.4  Rx         0596  8  4F FF 3F 00 27 00 00 00 
   789)      9056.1  Rx         0616  8  23 01 40 4F 2C 01 00 00 
   790)      9056.5  Rx         0616  8  40 FF 3F 00 00 00 00 00 
   791)      9057.0  Rx         0596  8  60 01 40 4F 00 00 00 00 
   792)      9057.5  Rx         0596  8  4F FF 3F 00 27 00 00 00 
   793)      9057.8  Rx         0140  1  00 
   794)      9058.2  Rx         0616  8  23 01 40 50 01 00 01 00 
   795)      9058.8  Rx         0616  8  40 FF 3F 00 00 00 00 00 
   796)      9059.2  Rx         0596  8  60 01 40 50 00 00 00 00 
   797)      9059.7  Rx         0596  8  4F FF 3F 00 27 00 00 00 
   798)      9060.3  Rx         0616  8  23 01 40 51 2C 01 2C 01 
   799)      9060.8  Rx         0616  8  40 FF 3F 00 00 00 00 00 
   800)      9061.3  Rx         0596  8  60 01 40 51 00 00 00 00 
   801)      9062.8  Rx         0596  8  4F FF 3F 00 27 00 00 00 
   802)      9063.4  Rx         0616  8  23 01 40 52 2C 01 2C 01 
   803)      9063.9  Rx         0616  8  40 FF 3F 00 00 00 00 00 
   804)      9064.4  Rx         0596  8  60 01 40 52 00 00 00 00 
   805)      9064.9  Rx         0596  8  4F FF 3F 00 27 00 00 00 
   806)      9065.5  Rx         0616  8  23 01 40 53 01 02 00 00 
   807)      9066.0  Rx         0616  8  40 FF 3F 00 00 00 00 00 
   808)      9066.5  Rx         0596  8  60 01 40 53 00 00 00 00 
   809)      9067.0  Rx         0596  8  4F FF 3F 00 27 00 00 00 
   810)      9067.6  Rx         0616  8  23 01 40 54 38 2C 01 2C 
   811)      9068.1  Rx         0616  8  40 FF 3F 00 00 00 00 00 
   812)      9068.6  Rx         0596  8  60 01 40 54 00 00 00 00 
   813)      9069.1  Rx         0596  8  4F FF 3F 00 27 00 00 00 
   814)      9069.7  Rx         0616  8  23 01 40 55 64 01 0A 38 
   815)      9070.2  Rx         0616  8  40 FF 3F 00 00 00 00 00 
   816)      9070.7  Rx         0596  8  60 01 40 55 00 00 00 00 
   817)      9071.2  Rx         0596  8  4F FF 3F 00 27 00 00 00 
   818)      9071.8  Rx         0616  8  23 01 40 56 75 61 66 65 
   819)      9072.3  Rx         0616  8  40 FF 3F 00 00 00 00 00 
   820)      9072.8  Rx         0596  8  60 01 40 56 00 00 00 00 
   821)      9073.3  Rx         0596  8  4F FF 3F 00 27 00 00 00 
   822)      9073.9  Rx         0616  8  23 01 40 57 00 21 74 6C 
   823)      9074.4  Rx         0616  8  40 FF 3F 00 00 00 00 00 
   824)      9074.9  Rx         0596  8  60 01 40 57 00 00 00 00 
   825)      9075.4  Rx         0596  8  4F FF 3F 00 27 00 00 00 
   826)      9076.0  Rx         0616  8  23 01 40 58 01 00 00 00 
   827)      9076.5  Rx         0616  8  40 FF 3F 00 00 00 00 00 
   828)      9077.0  Rx         0596  8  60 01 40 58 00 00 00 00 
   829)      9077.5  Rx         0596  8  4F FF 3F 00 27 00 00 00 
   830)      9077.7  Rx         0140  1  00 
   831)      9078.2  Rx         0616  8  23 01 40 59 01 00 00 00 
   832)      9078.7  Rx         0616  8  40 FF 3F 00 00 00 00 00 
   833)      9079.2  Rx         0596  8  60 01 40 59 00 00 00 00 
   834)      9079.7  Rx         0596  8  4F FF 3F 00 27 00 00 00 
   835)      9080.3  Rx         0616  8  23 01 40 5A 83 00 00 00 
   836)      9080.8  Rx         0616  8  40 FF 3F 00 00 00 00 00 
   837)      9081.3  Rx         0596  8  60 01 40 5A 00 00 00 00 
   838)      9081.8  Rx         0596  8  4F FF 3F 00 27 00 00 00 
   839)      9082.4  Rx         0616  8  23 01 40 5B 01 00 00 00 
   840)      9082.9  Rx         0616  8  40 FF 3F 00 00 00 00 00 
   841)      9083.4  Rx         0596  8  60 01 40 5B 00 00 00 00 
   842)      9083.9  Rx         0596  8  4F FF 3F 00 27 00 00 00 
   843)      9084.5  Rx         0616  8  23 01 40 5C 01 00 00 00 
   844)      9085.0  Rx         0616  8  40 FF 3F 00 00 00 00 00 
   845)      9085.5  Rx         0596  8  60 01 40 5C 00 00 00 00 
   846)      9086.0  Rx         0596  8  4F FF 3F 00 27 00 00 00 
   847)      9086.6  Rx         0616  8  23 01 40 5D 01 00 00 00 
   848)      9087.2  Rx         0596  8  60 01 40 5D 00 00 00 00 
   849)      9088.1  Rx         0420  8  00 14 3D 00 20 20 20 20 
   850)      9090.4  Rx         0216  8  00 12 C0 FF FE 00 00 00 
   851)      9090.9  Rx         0316  8  00 00 00 00 00 00 00 00 
   852)      9091.4  Rx         0196  8  3F F0 3F F0 00 01 00 00 
   853)      9091.9  Rx         0296  8  0E 00 02 03 00 01 00 00 
   854)      9092.4  Rx         0416  8  00 00 07 FF 00 00 00 00 
   855)      9092.9  Rx         0616  8  2F 04 40 00 00 00 00 00 
   856)      9093.4  Rx         0396  8  2D 00 00 00 00 00 00 00 
   857)      9093.9  Rx         0596  8  60 04 40 00 00 00 00 00 
   858)      9097.6  Rx         0140  1  00 
   859)      9102.9  Rx         0420  8  20 20 20 20 20 20 20 20 
   860)      9112.9  Rx         0216  8  00 12 C0 FF FE 00 00 00 
   861)      9113.4  Rx         0316  8  00 00 00 00 00 07 00 00 
   862)      9113.9  Rx         0196  8  3F F0 3F F0 04 01 00 00 
   863)      9114.3  Rx         0296  8  0E 00 02 03 00 01 00 00 
   864)      9114.9  Rx         0416  8  00 00 07 FF 00 00 00 00 
   865)      9115.3  Rx         0616  8  2F 04 40 01 01 00 00 00 
   866)      9115.8  Rx         0396  8  2D 00 00 00 00 00 00 00 
   867)      9116.3  Rx         0596  8  60 04 40 01 00 00 00 00 
   868)      9117.6  Rx         0140  1  00 
   869)      9119.3  Rx         0420  8  20 20 20 20 20 20 20 20 
   870)      9132.8  Rx         0216  8  00 12 C0 FF FE 00 00 00 
   871)      9133.3  Rx         0316  8  00 00 00 00 00 07 00 00 
   872)      9133.8  Rx         0196  8  3F F0 3F F0 04 01 00 00 
   873)      9134.3  Rx         0296  8  0E 00 02 03 00 01 00 00 
   874)      9134.8  Rx         0416  8  00 00 07 FF 00 00 00 00 
   875)      9135.3  Rx         0616  8  40 04 40 01 00 00 00 00 
   876)      9135.8  Rx         0396  8  2D 00 00 00 00 00 00 00 
   877)      9136.3  Rx         0596  8  4F 04 40 01 01 00 00 00 
   878)      9153.6  Rx         0216  8  00 12 C0 FF FE 00 00 00 
   879)      9154.1  Rx         0316  8  00 00 00 00 00 07 00 00 
   880)      9154.6  Rx         0196  8  3F F0 3F F0 04 01 00 00 
   881)      9155.1  Rx         0296  8  0E 00 02 03 00 01 00 00 
   882)      9155.6  Rx         0416  8  00 00 07 FF 00 00 00 00 
   883)      9156.1  Rx         0616  8  40 05 40 00 00 00 00 00 
   884)      9156.6  Rx         0396  8  2D 00 00 00 00 00 00 00 
   885)      9157.1  Rx         0596  8  4B 05 40 00 84 04 00 00 
   886)      9160.3  Rx         0450  8  07 15 00 00 00 00 00 00 
   887)      9173.9  Rx         0216  8  00 12 C0 FF FE 00 00 00 
   888)      9174.4  Rx         0316  8  00 00 00 00 00 07 00 00 
   889)      9174.9  Rx         0196  8  3F F0 3F F0 04 01 00 00 
   890)      9175.4  Rx         0296  8  0E 00 02 03 00 01 00 00 
   891)      9175.9  Rx         0416  8  00 00 07 FF 00 00 00 00 
   892)      9176.4  Rx         0616  8  40 05 40 01 00 00 00 00 
   893)      9176.9  Rx         0396  8  2D 00 00 00 00 00 00 00 
   894)      9177.4  Rx         0596  8  4B 05 40 01 00 00 00 00 
   895)      9177.6  Rx         0140  1  00 
   896)      9180.5  Rx         0418  8  04 00 00 00 00 00 00 00 
   897)      9194.6  Rx         0216  8  00 12 C0 FF FE 00 00 00 
   898)      9195.1  Rx         0316  8  00 00 00 00 00 07 00 00 
   899)      9195.6  Rx         0196  8  3F F0 3F F0 04 01 00 00 
   900)      9196.1  Rx         0296  8  0E 00 02 03 00 01 00 00 
   901)      9196.6  Rx         0416  8  00 00 07 FF 00 00 00 00 
   902)      9197.1  Rx         0616  8  40 05 40 02 00 00 00 00 
   903)      9197.6  Rx         0396  8  2D 00 00 00 00 00 00 00 
   904)      9198.1  Rx         0596  8  4B 05 40 02 01 00 00 00 
   905)      9214.8  Rx         0216  8  00 12 C0 FF FE 00 00 00 
   906)      9215.3  Rx         0316  8  00 00 00 00 00 07 00 00 
   907)      9215.8  Rx         0196  8  3F F0 3F F0 04 01 00 00 
   908)      9216.3  Rx         0296  8  0E 00 02 03 00 01 00 00 
   909)      9216.8  Rx         0416  8  00 00 07 FF 00 00 00 00 
   910)      9217.3  Rx         0616  8  40 05 40 03 00 00 00 00 
   911)      9217.8  Rx         0396  8  2D 00 00 00 00 00 00 00 
   912)      9218.2  Rx         0596  8  4B 05 40 03 01 00 00 00 
   913)      9227.6  Rx         0140  1  00 
   914)      9235.6  Rx         0216  8  00 12 C0 FF FE 00 00 00 
   915)      9236.0  Rx         0316  8  00 00 00 00 00 07 00 00 
   916)      9236.5  Rx         0196  8  3F F0 3F F0 04 01 00 00 
   917)      9237.0  Rx         0296  8  0E 00 02 03 00 01 00 00 
   918)      9237.5  Rx         0416  8  00 00 07 FF 00 00 00 00 
   919)      9238.0  Rx         0616  8  40 05 40 04 00 00 00 00 
   920)      9238.5  Rx         0396  8  2D 00 00 00 00 00 00 00 
   921)      9239.0  Rx         0596  8  4B 05 40 04 FF 03 00 00 
   922)      9247.6  Rx         0140  1  00 
   923)      9255.7  Rx         0216  8  00 12 C0 FF FE 00 00 00 
   924)      9256.2  Rx         0316  8  00 00 00 00 00 07 00 00 
   925)      9256.7  Rx         0196  8  3F F0 3F F0 04 01 00 00 
   926)      9257.2  Rx         0296  8  0E 00 02 03 00 01 00 00 
   927)      9257.7  Rx         0416  8  00 00 07 FF 00 00 00 00 
   928)      9258.2  Rx         0616  8  40 05 40 05 00 00 00 00 
   929)      9258.7  Rx         0396  8  2D 00 00 00 00 00 00 00 
   930)      9259.2  Rx         0596  8  4B 05 40 05 00 00 00 00 
   931)      9267.6  Rx         0140  1  00 
   932)      9276.5  Rx         0216  8  00 12 C0 FF FE 00 00 00 
   933)      9277.0  Rx         0316  8  00 00 00 00 00 07 00 00 
   934)      9277.5  Rx         0196  8  3F F0 3F F0 04 01 00 00 
   935)      9278.0  Rx         0296  8  0E 00 02 03 00 01 00 00 
   936)      9278.5  Rx         0416  8  00 00 07 FF 00 00 00 00 
   937)      9279.0  Rx         0616  8  40 05 40 06 00 00 00 00 
   938)      9279.5  Rx         0396  8  2D 00 00 00 00 00 00 00 
   939)      9279.9  Rx         0596  8  4B 05 40 06 3B 01 00 00 
   940)      9287.6  Rx         0140  1  00 
   941)      9296.7  Rx         0216  8  00 12 C0 FF FE 00 00 00 
   942)      9297.2  Rx         0316  8  00 00 00 00 00 07 00 00 
   943)      9297.6  Rx         0196  8  3F F0 3F F0 04 02 00 00 
   944)      9298.2  Rx         0296  8  0E 00 02 03 00 01 00 00 
   945)      9298.7  Rx         0416  8  00 00 07 FF 00 00 00 00 
   946)      9299.1  Rx         0616  8  40 05 40 07 00 00 00 00 
   947)      9299.6  Rx         0396  8  2D 00 00 00 00 00 00 00 
   948)      9300.1  Rx         0420  8  00 14 3D 00 20 20 20 20 
   949)      9300.6  Rx         0596  8  4B 05 40 07 00 00 00 00 
   950)      9307.6  Rx         0140  1  00 
   951)      9315.9  Rx         0420  8  20 20 20 20 20 20 20 20 
   952)      9317.5  Rx         0216  8  00 12 C0 FF FE 00 00 00 
   953)      9318.0  Rx         0316  8  00 00 00 00 00 07 00 00 
   954)      9318.5  Rx         0196  8  3F F0 3F F0 04 01 00 00 
   955)      9319.0  Rx         0296  8  0E 00 02 03 00 01 00 00 
   956)      9319.4  Rx         0416  8  00 00 07 FF 00 00 00 00 
   957)      9320.0  Rx         0616  8  40 05 40 08 00 00 00 00 
   958)      9320.4  Rx         0396  8  2D 00 00 00 00 00 00 00 
   959)      9320.9  Rx         0596  8  4B 05 40 08 00 00 00 00 
   960)      9327.6  Rx         0140  1  00 
   961)      9332.2  Rx         0420  8  20 20 20 20 20 20 20 43 
   962)      9337.6  Rx         0216  8  00 12 C0 FF FE 00 00 00 
   963)      9338.1  Rx         0316  8  00 00 00 00 00 07 00 00 
   964)      9338.6  Rx         0196  8  3F F0 3F F0 04 01 00 00 
   965)      9339.1  Rx         0296  8  0E 00 02 03 00 01 00 00 
   966)      9339.6  Rx         0416  8  00 00 07 FF 00 00 00 00 
   967)      9340.1  Rx         0616  8  40 05 40 09 00 00 00 00 
   968)      9340.6  Rx         0396  8  2D 00 00 00 00 00 00 00 
   969)      9341.1  Rx         0596  8  4B 05 40 09 00 00 00 00 
   970)      9358.4  Rx         0216  8  00 12 C0 FF FE 00 00 00 
   971)      9358.9  Rx         0316  8  00 00 00 00 00 07 00 00 
   972)      9359.4  Rx         0196  8  3F F0 3F F0 04 01 00 00 
   973)      9359.9  Rx         0296  8  0E 00 02 03 00 01 00 00 
   974)      9360.4  Rx         0416  8  00 00 07 FF 00 00 00 00 
   975)      9360.9  Rx         0616  8  40 05 40 0A 00 00 00 00 
   976)      9361.4  Rx         0396  8  2D 00 00 00 00 00 00 00 
   977)      9361.9  Rx         0596  8  4B 05 40 0A 23 00 00 00 
   978)      9378.6  Rx         0216  8  00 12 C0 FF FE 00 00 00 
   979)      9379.1  Rx         0316  8  00 00 00 00 00 07 00 00 
   980)      9379.6  Rx         0196  8  3F F0 3F F0 04 00 00 00 
   981)      9380.1  Rx         0296  8  0E 00 02 03 00 01 00 00 
   982)      9380.6  Rx         0416  8  00 00 07 FF 00 00 00 00 
   983)      9381.1  Rx         0616  8  40 05 40 0B 00 00 00 00 
   984)      9381.6  Rx         0396  8  2D 00 00 00 00 00 00 00 
   985)      9382.0  Rx         0596  8  4B 05 40 0B 06 02 00 00 
   986)      9387.6  Rx         0140  1  00 
   987)      9399.4  Rx         0216  8  00 12 C0 FF FE 00 00 00 
   988)      9399.9  Rx         0316  8  00 00 00 00 00 07 00 00 
   989)      9400.3  Rx         0196  8  3F F0 3F F0 04 01 00 00 
   990)      9400.9  Rx         0296  8  0E 00 02 03 00 01 00 00 
   991)      9401.3  Rx         0416  8  00 00 07 FF 00 00 00 00 
   992)      9401.8  Rx         0616  8  40 05 40 0C 00 00 00 00 
   993)      9402.3  Rx         0396  8  2D 00 00 00 00 00 00 00 
   994)      9402.8  Rx         0596  8  43 05 40 0C 00 00 00 00 
   995)      9407.6  Rx         0140  1  00 
   996)      9419.5  Rx         0216  8  00 12 C0 FF FE 00 00 00 
   997)      9420.0  Rx         0316  8  00 00 00 00 00 07 00 00 
   998)      9420.6  Rx         0196  8  3F F0 3F F0 04 02 00 00 
   999)      9421.0  Rx         0296  8  0E 00 02 03 00 01 00 00 
  1000)      9421.5  Rx         0416  8  00 00 07 FF 00 00 00 00 
  1001)      9422.0  Rx         0616  8  2B 04 10 00 00 00 00 00 
  1002)      9422.5  Rx         0396  8  2D 00 00 00 00 00 00 00 
  1003)      9423.0  Rx         0596  8  60 04 10 00 00 00 00 00 
  1004)      9427.6  Rx         0140  1  00 
  1005)      9440.3  Rx         0216  8  00 12 C0 FF FE 00 00 00 
  1006)      9440.8  Rx         0316  8  00 00 00 00 00 07 00 00 
  1007)      9441.3  Rx         0196  8  3F F0 3F F0 04 01 00 00 
  1008)      9441.8  Rx         0296  8  0E 00 02 03 00 01 00 00 
  1009)      9442.3  Rx         0416  8  00 00 07 FF 00 00 00 00 
  1010)      9442.8  Rx         0616  8  23 05 10 00 3D 33 00 00 
  1011)      9443.3  Rx         0396  8  2D 00 00 00 00 00 00 00 
  1012)      9443.8  Rx         0596  8  60 05 10 00 00 00 00 00 
  1013)      9447.6  Rx         0140  1  00 
  1014)      9460.5  Rx         0216  8  00 12 C0 FF FE 00 00 00 
  1015)      9461.0  Rx         0316  8  00 00 00 00 00 07 00 00 
  1016)      9461.5  Rx         0196  8  3F F0 3F F0 04 01 00 00 
  1017)      9462.0  Rx         0296  8  0E 00 02 03 00 01 00 00 
  1018)      9462.5  Rx         0416  8  00 00 07 FF 00 00 00 00 
  1019)      9463.0  Rx         0616  8  23 07 10 00 64 00 00 00 
  1020)      9463.4  Rx         0396  8  2D 00 00 00 00 00 00 00 
  1021)      9464.0  Rx         0596  8  60 07 10 00 00 00 00 00 
  1022)      9467.6  Rx         0140  1  00 
  1023)      9481.3  Rx         0216  8  00 12 C0 FF FE 00 00 00 
  1024)      9481.8  Rx         0316  8  00 00 00 00 00 07 00 00 
  1025)      9482.3  Rx         0196  8  3F F0 3F F0 04 01 00 00 
  1026)      9482.8  Rx         0296  8  0E 00 02 03 00 01 00 00 
  1027)      9483.2  Rx         0416  8  00 00 07 FF 00 00 00 00 
  1028)      9483.7  Rx         0616  8  23 08 10 00 64 00 00 00 
  1029)      9484.2  Rx         0396  8  2D 00 00 00 00 00 00 00 
  1030)      9484.7  Rx         0596  8  60 08 10 00 00 00 00 00 
  1031)      9487.6  Rx         0140  1  00 
  1032)      9496.2  Rx         0420  8  00 14 3D 00 20 20 20 20 
  1033)      9501.5  Rx         0216  8  00 12 C0 FF FE 00 00 00 
  1034)      9502.0  Rx         0316  8  00 00 00 00 00 07 00 00 
  1035)      9502.4  Rx         0196  8  3F F0 3F F0 04 01 00 00 
  1036)      9502.9  Rx         0296  8  0E 00 02 03 00 01 00 00 
  1037)      9503.5  Rx         0416  8  00 00 07 FF 00 00 00 00 
  1038)      9503.9  Rx         0616  8  23 09 10 00 64 00 00 00 
  1039)      9504.4  Rx         0396  8  2D 00 00 00 00 00 00 00 
  1040)      9504.9  Rx         0596  8  60 09 10 00 00 00 00 00 
  1041)      9507.6  Rx         0140  1  00 
  1042)      9512.5  Rx         0420  8  20 20 20 20 20 20 20 20 
  1043)      9522.2  Rx         0216  8  00 12 C0 FF FE 00 00 00 
  1044)      9522.7  Rx         0316  8  00 00 00 00 00 07 00 00 
  1045)      9523.3  Rx         0196  8  3F F0 3F F0 04 01 00 00 
  1046)      9523.7  Rx         0296  8  0E 00 02 03 00 01 00 00 
  1047)      9524.2  Rx         0416  8  00 00 07 FF 00 00 00 00 
  1048)      9524.7  Rx         0616  8  23 0B 10 00 64 00 00 00 
  1049)      9525.2  Rx         0396  8  2D 00 00 00 00 00 00 00 
  1050)      9525.7  Rx         0596  8  60 0B 10 00 00 00 00 00 
  1051)      9527.6  Rx         0140  1  00 
  1052)      9528.8  Rx         0420  8  20 20 20 20 20 20 43 6F 
  1053)      9542.4  Rx         0216  8  00 12 C0 FF FE 00 00 00 
  1054)      9542.9  Rx         0316  8  00 00 00 00 00 07 00 00 
  1055)      9543.4  Rx         0196  8  3F F0 3F F0 04 00 00 00 
  1056)      9543.9  Rx         0296  8  0E 00 02 03 00 01 00 00 
  1057)      9544.4  Rx         0416  8  00 00 07 FF 00 00 00 00 
  1058)      9544.9  Rx         0616  8  23 11 10 00 00 36 07 16 
  1059)      9545.4  Rx         0396  8  2D 00 00 00 00 00 00 00 
  1060)      9545.9  Rx         0596  8  60 11 10 00 00 00 00 00 
  1061)      9563.2  Rx         0216  8  00 12 C0 FF FE 00 00 00 
  1062)      9563.7  Rx         0316  8  00 00 00 00 00 07 00 00 
  1063)      9564.2  Rx         0196  8  3F F0 3F F0 04 01 00 00 
  1064)      9564.6  Rx         0296  8  0E 00 02 03 00 01 00 00 
  1065)      9565.2  Rx         0416  8  00 00 07 FF 00 00 00 00 
  1066)      9565.6  Rx         0616  8  23 10 10 00 01 08 0C 07 
  1067)      9566.1  Rx         0396  8  2D 00 00 00 00 00 00 00 
  1068)      9566.6  Rx         0596  8  60 10 10 00 00 00 00 00 
  1069)      9577.6  Rx         0140  1  00 
  1070)      9583.4  Rx         0216  8  00 12 C0 FF FE 00 00 00 
  1071)      9583.9  Rx         0316  8  00 00 00 00 00 07 00 00 
  1072)      9584.4  Rx         0196  8  3F F0 3F F0 04 01 00 00 
  1073)      9584.9  Rx         0296  8  0E 00 02 03 00 01 00 00 
  1074)      9585.4  Rx         0416  8  00 00 07 FF 00 00 00 00 
  1075)      9585.8  Rx         0616  8  2B 14 10 00 00 00 00 00 
  1076)      9586.4  Rx         0396  8  2D 00 00 00 00 00 00 00 
  1077)      9586.8  Rx         0596  8  60 14 10 00 00 00 00 00 
  1078)      9597.6  Rx         0140  1  00 
  1079)      9604.2  Rx         0216  8  00 12 C0 FF FE 00 00 00 
  1080)      9604.7  Rx         0316  8  00 00 00 00 00 07 00 00 
  1081)      9605.2  Rx         0196  8  3F F0 3F F0 04 00 00 00 
  1082)      9605.6  Rx         0296  8  0E 00 02 03 00 01 00 00 
  1083)      9606.2  Rx         0416  8  00 00 07 FF 00 00 00 00 
  1084)      9606.6  Rx         0616  8  2B 14 10 00 00 00 00 00 
  1085)      9607.1  Rx         0396  8  2D 00 00 00 00 00 00 00 
  1086)      9607.6  Rx         0596  8  60 14 10 00 00 00 00 00 
  1087)      9610.8  Rx         0450  8  07 1D 00 00 00 00 00 00 
  1088)      9617.6  Rx         0140  1  00 
  1089)      9624.3  Rx         0216  8  00 12 C0 FF FE 00 00 00 
  1090)      9624.8  Rx         0316  8  00 00 00 00 00 07 00 00 
  1091)      9625.3  Rx         0196  8  3F F0 3F F0 04 01 00 00 
  1092)      9625.8  Rx         0296  8  0E 00 02 03 00 01 00 00 
  1093)      9626.3  Rx         0416  8  00 00 07 FF 00 00 00 00 
  1094)      9626.8  Rx         0616  8  2B 14 10 00 00 00 00 00 
  1095)      9627.3  Rx         0396  8  2D 00 00 00 00 00 00 00 
  1096)      9627.8  Rx         0596  8  60 14 10 00 00 00 00 00 
  1097)      9637.6  Rx         0140  1  00 
  1098)      9645.1  Rx         0216  8  00 12 C0 FF FE 00 00 00 
  1099)      9645.6  Rx         0316  8  00 00 00 00 00 07 00 00 
  1100)      9646.1  Rx         0196  8  3F F0 3F F0 04 01 00 00 
  1101)      9646.6  Rx         0296  8  0E 00 02 03 00 01 00 00 
  1102)      9647.1  Rx         0416  8  00 00 07 FF 00 00 00 00 
  1103)      9647.5  Rx         0616  8  2B 14 10 00 00 00 00 00 
  1104)      9648.1  Rx         0396  8  2D 00 00 00 00 00 00 00 
  1105)      9648.5  Rx         0596  8  60 14 10 00 00 00 00 00 
  1106)      9657.6  Rx         0140  1  00 
  1107)      9665.3  Rx         0216  8  00 12 C0 FF FE 00 00 00 
  1108)      9665.8  Rx         0316  8  00 00 00 00 00 07 00 00 
  1109)      9666.3  Rx         0196  8  3F F0 3F F0 04 01 00 00 
  1110)      9666.8  Rx         0296  8  0E 00 02 03 00 01 00 00 
  1111)      9667.3  Rx         0416  8  00 00 07 FF 00 00 00 00 
  1112)      9667.8  Rx         0616  8  2B 14 10 00 00 00 00 00 
  1113)      9668.3  Rx         0396  8  2D 00 00 00 00 00 00 00 
  1114)      9668.7  Rx         0420  8  00 14 3D 00 20 20 20 20 
  1115)      9669.2  Rx         0596  8  60 14 10 00 00 00 00 00 
  1116)      9677.6  Rx         0140  1  00 
  1117)      9684.5  Rx         0420  8  20 20 20 20 20 20 20 20 
  1118)      9686.2  Rx         0216  8  00 12 C0 FF FE 00 00 00 
  1119)      9686.6  Rx         0316  8  00 00 00 00 00 07 00 00 
  1120)      9687.1  Rx         0196  8  3F F0 3F F0 04 01 00 00 
  1121)      9687.6  Rx         0296  8  0E 00 02 03 00 01 00 00 
  1122)      9688.1  Rx         0416  8  00 00 07 FF 00 00 00 00 
  1123)      9688.6  Rx         0616  8  23 1D 10 00 64 00 00 00 
  1124)      9689.1  Rx         0396  8  2D 00 00 00 00 00 00 00 
  1125)      9689.6  Rx         0596  8  60 1D 10 00 00 00 00 00 
  1126)      9697.6  Rx         0140  1  00 
  1127)      9700.9  Rx         0420  8  20 20 20 20 20 43 6F 64 
  1128)      9706.3  Rx         0216  8  00 12 C0 FF FE 00 00 00 
  1129)      9706.8  Rx         0316  8  00 00 00 00 00 07 00 00 
  1130)      9707.2  Rx         0196  8  3F F0 3F F0 08 01 00 00 
  1131)      9707.7  Rx         0296  8  0E 00 02 03 00 01 00 00 
  1132)      9708.3  Rx         0416  8  00 00 07 FF 00 00 00 00 
  1133)      9708.7  Rx         0616  8  40 05 40 00 00 00 00 00 
  1134)      9709.2  Rx         0396  8  2D 00 00 00 00 00 00 00 
  1135)      9709.7  Rx         0596  8  4B 05 40 00 84 04 00 00 
  1136)      9727.0  Rx         0216  8  00 12 C0 FF FE 00 00 00 
  1137)      9727.5  Rx         0316  8  00 00 00 00 00 07 00 00 
  1138)      9728.0  Rx         0196  8  3F F0 3F F0 04 01 00 00 
  1139)      9728.5  Rx         0296  8  0E 00 02 03 00 01 00 00 
  1140)      9729.0  Rx         0416  8  00 00 07 FF 00 00 00 00 
  1141)      9729.5  Rx         0616  8  40 05 40 01 00 00 00 00 
  1142)      9730.0  Rx         0396  8  2D 00 00 00 00 00 00 00 
  1143)      9730.4  Rx         0596  8  4B 05 40 01 00 00 00 00 
  1144)      9747.2  Rx         0216  8  00 12 C0 FF FE 00 00 00 
  1145)      9747.7  Rx         0316  8  00 00 00 00 00 07 00 00 
  1146)      9747.9  Rx         0140  1  00 
  1147)      9748.4  Rx         0196  8  3F F0 3F F0 04 01 00 00 
  1148)      9748.9  Rx         0296  8  0E 00 02 03 00 01 00 00 
  1149)      9749.4  Rx         0416  8  00 00 07 FF 00 00 00 00 
  1150)      9749.9  Rx         0616  8  40 05 40 02 00 00 00 00 
  1151)      9750.4  Rx         0396  8  2D 00 00 00 00 00 00 00 
  1152)      9750.9  Rx         0596  8  4B 05 40 02 01 00 00 00 
  1153)      9767.6  Rx         0140  1  00 
  1154)      9768.1  Rx         0216  8  00 12 C0 FF FE 00 00 00 
  1155)      9768.6  Rx         0316  8  00 00 00 00 00 07 00 00 
  1156)      9769.1  Rx         0196  8  3F F0 3F F0 04 01 00 00 
  1157)      9769.6  Rx         0296  8  0E 00 02 03 00 01 00 00 
  1158)      9770.1  Rx         0416  8  00 00 07 FF 00 00 00 00 
  1159)      9770.6  Rx         0616  8  40 05 40 03 00 00 00 00 
  1160)      9771.1  Rx         0396  8  2D 00 00 00 00 00 00 00 
  1161)      9771.5  Rx         0596  8  4B 05 40 03 01 00 00 00 
  1162)      9787.6  Rx         0140  1  00 
  1163)      9788.2  Rx         0216  8  00 12 C0 FF FE 00 00 00 
  1164)      9788.7  Rx         0316  8  00 00 00 00 00 07 00 00 
  1165)      9789.2  Rx         0196  8  3F F0 3F F0 04 00 00 00 
  1166)      9789.7  Rx         0296  8  0E 00 02 03 00 01 00 00 
  1167)      9790.2  Rx         0416  8  00 00 07 FF 00 00 00 00 
  1168)      9790.7  Rx         0616  8  40 05 40 04 00 00 00 00 
  1169)      9791.2  Rx         0396  8  2D 00 00 00 00 00 00 00 
  1170)      9791.7  Rx         0596  8  4B 05 40 04 FF 03 00 00 
  1171)      9807.6  Rx         0140  1  00 
  1172)      9809.0  Rx         0216  8  00 12 C0 FF FE 00 00 00 
  1173)      9809.5  Rx         0316  8  00 00 00 00 00 07 00 00 
  1174)      9810.0  Rx         0196  8  3F F0 3F F0 04 01 00 00 
  1175)      9810.5  Rx         0296  8  0E 00 02 03 00 01 00 00 
  1176)      9811.0  Rx         0416  8  00 00 07 FF 00 00 00 00 
  1177)      9811.5  Rx         0616  8  40 05 40 05 00 00 00 00 
  1178)      9811.9  Rx         0396  8  2D 00 00 00 00 00 00 00 
  1179)      9812.4  Rx         0596  8  4B 05 40 05 00 00 00 00 
  1180)      9827.6  Rx         0140  1  00 
  1181)      9829.2  Rx         0216  8  00 12 C0 FF FE 00 00 00 
  1182)      9829.7  Rx         0316  8  00 00 00 00 00 07 00 00 
  1183)      9830.2  Rx         0196  8  3F F0 3F F0 04 00 00 00 
  1184)      9830.7  Rx         0296  8  0E 00 02 03 00 01 00 00 
  1185)      9831.2  Rx         0416  8  00 00 07 FF 00 00 00 00 
  1186)      9831.6  Rx         0616  8  40 05 40 06 00 00 00 00 
  1187)      9832.2  Rx         0396  8  2D 00 00 00 00 00 00 00 
  1188)      9832.6  Rx         0596  8  4B 05 40 06 3A 01 00 00 
  1189)      9847.6  Rx         0140  1  00 
  1190)      9850.0  Rx         0216  8  00 12 C0 FF FE 00 00 00 
  1191)      9850.4  Rx         0316  8  00 00 00 00 00 07 00 00 
  1192)      9850.9  Rx         0196  8  3F F0 3F F0 04 01 00 00 
  1193)      9851.4  Rx         0296  8  0E 00 02 03 00 01 00 00 
  1194)      9851.9  Rx         0416  8  00 00 07 FF 00 00 00 00 
  1195)      9852.4  Rx         0616  8  40 05 40 07 00 00 00 00 
  1196)      9852.9  Rx         0396  8  2D 00 00 00 00 00 00 00 
  1197)      9853.4  Rx         0596  8  4B 05 40 07 00 00 00 00 
  1198)      9864.9  Rx         0420  8  00 14 3D 00 20 20 20 20 
  1199)      9867.6  Rx         0140  1  00 
  1200)      9870.1  Rx         0216  8  00 12 C0 FF FE 00 00 00 
  1201)      9870.6  Rx         0316  8  00 00 00 00 00 07 00 00 
  1202)      9871.1  Rx         0196  8  3F F0 3F F0 04 01 00 00 
  1203)      9871.6  Rx         0296  8  0E 00 02 03 00 01 00 00 
  1204)      9872.1  Rx         0416  8  00 00 07 FF 00 00 00 00 
  1205)      9872.6  Rx         0616  8  40 05 40 08 00 00 00 00 
  1206)      9873.1  Rx         0396  8  2D 00 00 00 00 00 00 00 
  1207)      9873.5  Rx         0596  8  4B 05 40 08 00 00 00 00 
  1208)      9881.1  Rx         0420  8  20 20 20 20 20 20 20 20 
  1209)      9887.6  Rx         0140  1  00 
  1210)      9890.9  Rx         0216  8  00 12 C0 FF FE 00 00 00 
  1211)      9891.3  Rx         0316  8  00 00 00 00 00 07 00 00 
  1212)      9891.9  Rx         0196  8  3F F0 3F F0 04 01 00 00 
  1213)      9892.3  Rx         0296  8  0E 00 02 03 00 01 00 00 
  1214)      9892.8  Rx         0416  8  00 00 07 FF 00 00 00 00 
  1215)      9893.3  Rx         0616  8  40 05 40 09 00 00 00 00 
  1216)      9893.8  Rx         0396  8  2D 00 00 00 00 00 00 00 
  1217)      9894.3  Rx         0596  8  4B 05 40 09 00 00 00 00 
  1218)      9897.5  Rx         0420  8  20 20 20 20 43 6F 64 65 
  1219)      9911.1  Rx         0216  8  00 12 C0 FF FE 00 00 00 
  1220)      9911.6  Rx         0316  8  00 00 00 00 00 07 00 00 
  1221)      9912.0  Rx         0196  8  3F F0 3F F0 04 01 00 00 
  1222)      9912.5  Rx         0296  8  0E 00 02 03 00 01 00 00 
  1223)      9913.0  Rx         0416  8  00 00 07 FF 00 00 00 00 
  1224)      9913.5  Rx         0616  8  40 05 40 0A 00 00 00 00 
  1225)      9914.0  Rx         0396  8  2D 00 00 00 00 00 00 00 
  1226)      9914.5  Rx         0596  8  4B 05 40 0A 24 00 00 00 
  1227)      9931.8  Rx         0216  8  00 12 C0 FF FE 00 00 00 
  1228)      9932.3  Rx         0316  8  00 00 00 00 00 07 00 00 
  1229)      9932.8  Rx         0196  8  3F F0 3F F0 04 01 00 00 
  1230)      9933.3  Rx         0296  8  0E 00 02 03 00 01 00 00 
  1231)      9933.8  Rx         0416  8  00 00 07 FF 00 00 00 00 
  1232)      9934.3  Rx         0616  8  40 05 40 0B 00 00 00 00 
  1233)      9934.8  Rx         0396  8  2D 00 00 00 00 00 00 00 
  1234)      9935.3  Rx         0596  8  4B 05 40 0B 04 02 00 00 
  1235)      9944.1  Rx         0140  1  00 
  1236)      9952.0  Rx         0216  8  00 12 C0 FF FE 00 00 00 
  1237)      9952.5  Rx         0316  8  00 00 00 00 00 07 00 00 
  1238)      9953.0  Rx         0196  8  3F F0 3F F0 00 01 00 00 
  1239)      9953.5  Rx         0296  8  0E 00 02 03 00 01 00 00 
  1240)      9954.0  Rx         0416  8  00 00 07 FF 00 00 00 00 
  1241)      9954.5  Rx         0616  8  40 05 40 0C 00 00 00 00 
  1242)      9955.0  Rx         0396  8  2D 00 00 00 00 00 00 00 
  1243)      9955.5  Rx         0596  8  43 05 40 0C 00 00 00 00 
  1244)      9957.6  Rx         0140  1  00 
  1245)      9972.8  Rx         0216  8  00 12 C0 FF FE 00 00 00 
  1246)      9973.3  Rx         0316  8  00 00 00 00 00 07 00 00 
  1247)      9973.8  Rx         0196  8  3F F0 3F F0 04 01 00 00 
  1248)      9974.2  Rx         0296  8  0E 00 02 03 00 01 00 00 
  1249)      9974.8  Rx         0416  8  00 00 07 FF 00 00 00 00 
  1250)      9975.3  Rx         0616  8  2B 04 10 00 00 00 00 00 
  1251)      9975.7  Rx         0396  8  2D 00 00 00 00 00 00 00 
  1252)      9976.2  Rx         0596  8  60 04 10 00 00 00 00 00 
  1253)      9977.6  Rx         0140  1  00 
  1254)      9993.0  Rx         0216  8  00 12 C0 FF FE 00 00 00 
  1255)      9993.5  Rx         0316  8  00 00 00 00 00 07 00 00 
  1256)      9994.0  Rx         0196  8  3F F0 3F F0 04 01 00 00 
  1257)      9994.5  Rx         0296  8  0E 00 02 03 00 01 00 00 
  1258)      9994.9  Rx         0416  8  00 00 07 FF 00 00 00 00 
  1259)      9995.4  Rx         0616  8  23 05 10 00 3D 33 00 00 
  1260)      9995.9  Rx         0396  8  2D 00 00 00 00 00 00 00 
  1261)      9996.4  Rx         0596  8  60 05 10 00 00 00 00 00 
  1262)      9997.6  Rx         0140  1  00 
  1263)     10013.7  Rx         0216  8  00 12 C0 FF FE 00 00 00 
  1264)     10014.3  Rx         0316  8  00 00 00 00 00 07 00 00 
  1265)     10014.7  Rx         0196  8  3F F0 3F F0 04 01 00 00 
